
**** 12/02/18 02:30:43 ********* PSpice 9.2 (Mar 2000) ******** ID# 0 ********

 * D:\My Documents\Documents\Google Drive\Projects\3. Bionic man\pspice2\butterworth_low2.sch


 ****     CIRCUIT DESCRIPTION


******************************************************************************




* Schematics Version 9.2
* Sun Dec 02 02:30:43 2018



** Analysis setup **
.tran 1ns .2s 0
.OP 


* From [PSPICE NETLIST] section of C:\Program Files\Orcad\PSpice\PSpice.ini:
.lib "nom.lib"

.INC "butterworth_low2.net"



**** INCLUDING butterworth_low2.net ****
* Schematics Netlist *



V_V1         VPOS 0 9
V_V2         0 VNEG 9
X_U2         $N_0001 $N_0002 VPOS VNEG $N_0003 LM741
C_C5         $N_0001 0  3.75u  
C_C4         $N_0006 $N_0003  7.5u  
R_R9         $N_0007 $N_0006  1k  
R_R8         $N_0006 $N_0001  1k  
R_R7         $N_0002 $N_0003  2k  
X_U5         $N_0008 $N_0009 VPOS VNEG $N_0010 LM741
R_R14         $N_0008 0  20k  
R_R12         $N_0009 $N_0010  10k  
R_R13         $N_0013 $N_0010  10k  
C_C8         $N_0003 $N_0013  11.25u  
C_C9         $N_0013 $N_0008  11.25u  
V_V5         $N_0007 0 DC 0 AC 0
+SIN 0 1m 10 0 0 0
R_R15         $N_0014 0  100k  
C_C10         $N_0010 $N_0014  470u  

**** RESUMING butterworth_low2.cir ****
.PROBE V(*) I(*) W(*) D(*) NOISE(*) 


.END

**** 12/02/18 02:30:43 ********* PSpice 9.2 (Mar 2000) ******** ID# 0 ********

 * D:\My Documents\Documents\Google Drive\Projects\3. Bionic man\pspice2\butterworth_low2.sch


 ****     Diode MODEL PARAMETERS


******************************************************************************




               X_U2.x_lm741.dx X_U2.x_lm741.dy X_U5.x_lm741.dx X_U5.x_lm741.dy 
          IS  800.000000E-18  800.000000E-18  800.000000E-18  800.000000E-18 
          RS    1               1.000000E-03    1               1.000000E-03 
         CJO                   10.000000E-12                   10.000000E-12 


**** 12/02/18 02:30:43 ********* PSpice 9.2 (Mar 2000) ******** ID# 0 ********

 * D:\My Documents\Documents\Google Drive\Projects\3. Bionic man\pspice2\butterworth_low2.sch


 ****     BJT MODEL PARAMETERS


******************************************************************************




               X_U2.x_lm741.qx X_U5.x_lm741.qx 
               NPN             NPN             
          IS  800.000000E-18  800.000000E-18 
          BF   93.75           93.75         
          NF    1               1            
          BR    1               1            
          NR    1               1            
          CN    2.42            2.42         
           D     .87             .87         


**** 12/02/18 02:30:43 ********* PSpice 9.2 (Mar 2000) ******** ID# 0 ********

 * D:\My Documents\Documents\Google Drive\Projects\3. Bionic man\pspice2\butterworth_low2.sch


 ****     SMALL SIGNAL BIAS SOLUTION       TEMPERATURE =   27.000 DEG C


******************************************************************************



 NODE   VOLTAGE     NODE   VOLTAGE     NODE   VOLTAGE     NODE   VOLTAGE


( VNEG)   -9.0000  ( VPOS)    9.0000  ($N_0001)-159.5E-06                       

($N_0002)-140.2E-06                   ($N_0003) 19.33E-06                       

($N_0006)-79.73E-06                   ($N_0007)    0.0000                       

($N_0008)    -.0016                   ($N_0009)    -.0016                       

($N_0010)-777.6E-06                   ($N_0013)-777.6E-06                       

($N_0014)    0.0000                   (X_U2.x_lm741.6)-3.228E-09                

(X_U2.x_lm741.7) 23.32E-06            (X_U2.x_lm741.8) 23.32E-06                

(X_U2.x_lm741.9)    0.0000            (X_U5.x_lm741.6) 71.88E-09                

(X_U5.x_lm741.7)-773.6E-06            (X_U5.x_lm741.8)-773.6E-06                

(X_U5.x_lm741.9)    0.0000            (X_U2.x_lm741.10)    -.6078               

(X_U2.x_lm741.11)    8.9603           (X_U2.x_lm741.12)    8.9603               

(X_U2.x_lm741.13)    -.5939           (X_U2.x_lm741.14)    -.5940               

(X_U2.x_lm741.53)    8.0000           (X_U2.x_lm741.54)   -8.0000               

(X_U2.x_lm741.90) 79.77E-06           (X_U2.x_lm741.91)   40.0000               

(X_U2.x_lm741.92)  -40.0000           (X_U2.x_lm741.99)    0.0000               

(X_U5.x_lm741.10)    -.6093           (X_U5.x_lm741.11)    8.9603               

(X_U5.x_lm741.12)    8.9603           (X_U5.x_lm741.13)    -.5954               

(X_U5.x_lm741.14)    -.5954           (X_U5.x_lm741.53)    8.0000               

(X_U5.x_lm741.54)   -8.0000           (X_U5.x_lm741.90) 79.77E-06               

(X_U5.x_lm741.91)   40.0000           (X_U5.x_lm741.92)  -40.0000               

(X_U5.x_lm741.99)    0.0000           




    VOLTAGE SOURCE CURRENTS
    NAME         CURRENT

    V_V1        -2.012E-03
    V_V2        -2.013E-03
    V_V5        -7.973E-08
    X_U2.x_lm741.vb  -3.228E-14
    X_U2.x_lm741.vc   8.001E-12
    X_U2.x_lm741.ve   8.185E-12
    X_U2.x_lm741.vlim   7.977E-08
    X_U2.x_lm741.vlp  -4.000E-11
    X_U2.x_lm741.vln  -4.000E-11
    X_U5.x_lm741.vb   7.188E-13
    X_U5.x_lm741.vc   8.002E-12
    X_U5.x_lm741.ve   8.185E-12
    X_U5.x_lm741.vlim   7.977E-08
    X_U5.x_lm741.vlp  -4.000E-11
    X_U5.x_lm741.vln  -4.000E-11

    TOTAL POWER DISSIPATION   3.62E-02  WATTS


**** 12/02/18 02:30:43 ********* PSpice 9.2 (Mar 2000) ******** ID# 0 ********

 * D:\My Documents\Documents\Google Drive\Projects\3. Bionic man\pspice2\butterworth_low2.sch


 ****     OPERATING POINT INFORMATION      TEMPERATURE =   27.000 DEG C


******************************************************************************






**** VOLTAGE-CONTROLLED CURRENT SOURCES


NAME         X_U2.x_lm741.ga         X_U2.x_lm741.gcm      
I-SOURCE    -3.623E-09              -3.623E-09            

NAME         X_U5.x_lm741.ga         X_U5.x_lm741.gcm      
I-SOURCE    -3.633E-09              -3.632E-09            


**** VOLTAGE-CONTROLLED VOLTAGE SOURCES


NAME         X_U2.x_lm741.egnd       X_U5.x_lm741.egnd     
V-SOURCE     0.000E+00               0.000E+00            
I-SOURCE    -1.260E-07              -1.262E-07            


**** CURRENT-CONTROLLED CURRENT SOURCES


NAME         X_U2.x_lm741.fb         X_U5.x_lm741.fb       
I-SOURCE    -2.048E-07               7.752E-06            


**** CURRENT-CONTROLLED VOLTAGE SOURCES


NAME         X_U2.x_lm741.hlim       X_U5.x_lm741.hlim     
V-SOURCE     7.977E-05               7.977E-05            
I-SOURCE    -1.596E-16              -1.596E-16            


**** DIODES


NAME         X_U2.x_lm741.dc         X_U2.x_lm741.de       
MODEL        X_U2.x_lm741.dy         X_U2.x_lm741.dy       
ID          -8.00E-12               -8.00E-12             
VD          -8.00E+00               -8.00E+00             
REQ          1.00E+12                1.00E+12             
CAP          3.33E-12                3.33E-12             

NAME         X_U2.x_lm741.dlp        X_U2.x_lm741.dln      
MODEL        X_U2.x_lm741.dx         X_U2.x_lm741.dx       
ID          -4.00E-11               -4.00E-11             
VD          -4.00E+01               -4.00E+01             
REQ          1.00E+12                1.00E+12             
CAP          0.00E+00                0.00E+00             

NAME         X_U2.x_lm741.dp         X_U5.x_lm741.dc       
MODEL        X_U2.x_lm741.dx         X_U5.x_lm741.dy       
ID          -1.80E-11               -8.00E-12             
VD          -1.80E+01               -8.00E+00             
REQ          1.00E+12                1.00E+12             
CAP          0.00E+00                3.33E-12             

NAME         X_U5.x_lm741.de         X_U5.x_lm741.dlp      
MODEL        X_U5.x_lm741.dy         X_U5.x_lm741.dx       
ID          -8.00E-12               -4.00E-11             
VD          -8.00E+00               -4.00E+01             
REQ          1.00E+12                1.00E+12             
CAP          3.33E-12                0.00E+00             

NAME         X_U5.x_lm741.dln        X_U5.x_lm741.dp       
MODEL        X_U5.x_lm741.dx         X_U5.x_lm741.dx       
ID          -4.00E-11               -1.80E-11             
VD          -4.00E+01               -1.80E+01             
REQ          1.00E+12                1.00E+12             
CAP          0.00E+00                0.00E+00             


**** BIPOLAR JUNCTION TRANSISTORS


NAME         X_U2.x_lm741.q1         X_U2.x_lm741.q2       
MODEL        X_U2.x_lm741.qx         X_U2.x_lm741.qx       
IB           7.98E-08                7.97E-08             
IC           7.48E-06                7.48E-06             
VBE          5.94E-01                5.94E-01             
VBC         -8.96E+00               -8.96E+00             
VCE          9.55E+00                9.55E+00             
BETADC       9.38E+01                9.38E+01             
GM           2.89E-04                2.89E-04             
RPI          3.24E+05                3.24E+05             
RX           0.00E+00                0.00E+00             
RO           1.00E+12                1.00E+12             
CBE          0.00E+00                0.00E+00             
CBC          0.00E+00                0.00E+00             
CJS          0.00E+00                0.00E+00             
BETAAC       9.38E+01                9.38E+01             
CBX/CBX2     0.00E+00                0.00E+00             
FT/FT2       4.60E+15                4.60E+15             



NAME         X_U5.x_lm741.q1         X_U5.x_lm741.q2       
MODEL        X_U5.x_lm741.qx         X_U5.x_lm741.qx       
IB           7.98E-08                7.97E-08             
IC           7.48E-06                7.48E-06             
VBE          5.94E-01                5.94E-01             
VBC         -8.96E+00               -8.96E+00             
VCE          9.56E+00                9.56E+00             
BETADC       9.38E+01                9.38E+01             
GM           2.89E-04                2.89E-04             
RPI          3.24E+05                3.24E+05             
RX           0.00E+00                0.00E+00             
RO           1.00E+12                1.00E+12             
CBE          0.00E+00                0.00E+00             
CBC          0.00E+00                0.00E+00             
CJS          0.00E+00                0.00E+00             
BETAAC       9.38E+01                9.38E+01             
CBX/CBX2     0.00E+00                0.00E+00             
FT/FT2       4.60E+15                4.60E+15             


**** 12/02/18 02:30:43 ********* PSpice 9.2 (Mar 2000) ******** ID# 0 ********

 * D:\My Documents\Documents\Google Drive\Projects\3. Bionic man\pspice2\butterworth_low2.sch


 ****     INITIAL TRANSIENT SOLUTION       TEMPERATURE =   27.000 DEG C


******************************************************************************



 NODE   VOLTAGE     NODE   VOLTAGE     NODE   VOLTAGE     NODE   VOLTAGE


( VNEG)   -9.0000  ( VPOS)    9.0000  ($N_0001)-159.5E-06                       

($N_0002)-140.2E-06                   ($N_0003) 19.33E-06                       

($N_0006)-79.73E-06                   ($N_0007)    0.0000                       

($N_0008)    -.0016                   ($N_0009)    -.0016                       

($N_0010)-777.6E-06                   ($N_0013)-777.6E-06                       

($N_0014)    0.0000                   (X_U2.x_lm741.6)-3.220E-09                

(X_U2.x_lm741.7) 23.32E-06            (X_U2.x_lm741.8) 23.32E-06                

(X_U2.x_lm741.9)    0.0000            (X_U5.x_lm741.6) 71.89E-09                

(X_U5.x_lm741.7)-773.6E-06            (X_U5.x_lm741.8)-773.6E-06                

(X_U5.x_lm741.9)    0.0000            (X_U2.x_lm741.10)    -.6078               

(X_U2.x_lm741.11)    8.9603           (X_U2.x_lm741.12)    8.9603               

(X_U2.x_lm741.13)    -.5939           (X_U2.x_lm741.14)    -.5940               

(X_U2.x_lm741.53)    8.0000           (X_U2.x_lm741.54)   -8.0000               

(X_U2.x_lm741.90) 79.77E-06           (X_U2.x_lm741.91)   40.0000               

(X_U2.x_lm741.92)  -40.0000           (X_U2.x_lm741.99)    0.0000               

(X_U5.x_lm741.10)    -.6093           (X_U5.x_lm741.11)    8.9603               

(X_U5.x_lm741.12)    8.9603           (X_U5.x_lm741.13)    -.5954               

(X_U5.x_lm741.14)    -.5954           (X_U5.x_lm741.53)    8.0000               

(X_U5.x_lm741.54)   -8.0000           (X_U5.x_lm741.90) 79.77E-06               

(X_U5.x_lm741.91)   40.0000           (X_U5.x_lm741.92)  -40.0000               

(X_U5.x_lm741.99)    0.0000           




    VOLTAGE SOURCE CURRENTS
    NAME         CURRENT

    V_V1        -2.012E-03
    V_V2        -2.013E-03
    V_V5        -7.973E-08
    X_U2.x_lm741.vb  -3.226E-14
    X_U2.x_lm741.vc   8.001E-12
    X_U2.x_lm741.ve   8.185E-12
    X_U2.x_lm741.vlim   7.977E-08
    X_U2.x_lm741.vlp  -4.000E-11
    X_U2.x_lm741.vln  -4.000E-11
    X_U5.x_lm741.vb   7.188E-13
    X_U5.x_lm741.vc   8.002E-12
    X_U5.x_lm741.ve   8.185E-12
    X_U5.x_lm741.vlim   7.977E-08
    X_U5.x_lm741.vlp  -4.000E-11
    X_U5.x_lm741.vln  -4.000E-11

    TOTAL POWER DISSIPATION   3.62E-02  WATTS



          JOB CONCLUDED

          TOTAL JOB TIME             .05
